content/00-digital-hardware-foundations/07-hardware-interconnects/lessons/01-on-chip-soc-interconnects/02-on-chip-crossbar-matrix-routing/02-axi-ordering-rules-hazard-mitigation.md
# AXI Transaction Ordering Rules and Interconnect Hazard Mitigation

## The Out-of-Order Memory Hazard and Identical-ID Data Corruption

In high-performance System-on-Chip (SoC) microarchitecture, processing units—such as central processing unit (CPU) cores, graphics processing units (GPUs), and direct memory access (DMA) engines—communicate with memory targets across high-speed interconnect matrices. To achieve high memory throughput, advanced interconnect protocols such as the Advanced eXtensible Interface 4 (AXI4) decouple memory operations into five physically independent channels: Read Address (`AR`), Read Data (`R`), Write Address (`AW`), Write Data (`W`), and Write Response (`B`).

By separating reads and writes into independent channels, an AXI interconnect matrix allows read addresses and write addresses to be dispatched simultaneously across separate physical wires on the exact same clock cycle.

However, this independence introduces a severe microarchitectural data corruption hazard: **Inter-Channel Data Dependencies**.

Consider what happens inside an SoC when a CPU core executes a simple, high-frequency software sequence that modifies a variable at memory address $A$ and then immediately reads that exact same variable back to verify its value:

```c
// PROGRAMMER'S INTENDED SEQUENTIAL INSTRUCTION STREAM
STORE [0x1000] = 0x12345678; // Instruction 1: Write new value to Address 0x1000
LOAD  R1, [0x1000];          // Instruction 2: Read value from Address 0x1000 into Register R1
```

Let us trace how these two instructions travel across an AXI4 interconnect matrix:

1. **Instruction 1 (`STORE [0x1000] = 0x12345678`)**: The CPU dispatches the write target address `0x1000` onto the Write Address channel (`AWADDR = 0x1000`) and dispatches the data payload `0x12345678` onto the Write Data channel (`WDATA = 0x12345678`).
2. **Instruction 2 (`LOAD R1, [0x1000]`)**: On the very next clock cycle, the CPU dispatches the read target address `0x1000` onto the Read Address channel (`ARADDR = 0x1000`).

Now, observe the physical disaster that can occur inside the interconnect crossbar matrix:

* The Write Address (`AW`) channel is currently busy processing write buffer updates for another core. The write address `0x1000` is queued inside an interconnect buffer.
* Meanwhile, the Read Address (`AR`) channel is completely open and idle! The read address `0x1000` zooms past the write address, crossing the crossbar matrix and reaching the SRAM memory target **FIRST**!
* The SRAM memory target receives the read address `0x1000` before the write address `0x1000` arrives. The SRAM reads its storage cells and returns the **OLD, un-updated value (`0x00000000`)** back to CPU register `R1`!
* A few nanoseconds later, the write address `0x1000` finally arrives at the SRAM, and the SRAM writes `0x12345678` into memory.

```text
THE READ-AFTER-WRITE (RAW) INTERCONNECT HAZARD

 CPU Core Execution Stream
 1. STORE [0x1000] = 0x12345678 ──► Queued in Write Address Channel (AW)
 2. LOAD  R1, [0x1000]          ──► Zooms ahead on Read Address Channel (AR)!
                                    │
                                    ▼
 SRAM Target Receives Read Address 0x1000 FIRST!
 SRAM Returns OLD STALE DATA (0x00000000) to Register R1!
 (CPU receives wrong value! Software algorithm corrupted!)
```

Examine this hardware result:
Register `R1` received `0x00000000` instead of `0x12345678`! 

The program executed a **Read-After-Write (RAW) Hazard**. Even though the programmer explicitly wrote the store instruction *before* the load instruction, the independent physical channels of the interconnect allowed the read to pass the write in mid-flight, returning stale, corrupted data to the CPU!

Similar hazards occur across other combinations of memory accesses targeting the exact same address:
* **Write-After-Write (WAW) Hazard**: Two consecutive store instructions write different values to address $A$ (`STORE A = 10` followed by `STORE A = 20`). If the interconnect reorders the two write transactions, the memory target receives `STORE A = 20` first and `STORE A = 10` second. The memory target ends up storing `10` instead of `20`!
* **Write-After-Read (WAR) Hazard**: A read instruction (`LOAD A`) is followed by a write instruction (`STORE A = 50`). If the write passes the read in mid-flight, the load instruction reads the new value `50` instead of the original value!

We face a fundamental hardware design dilemma:
* If we forbid all reordering across the interconnect, fast independent memory transactions targeting different addresses are forced to execute sequentially, destroying parallel memory throughput.
* If we allow un-constrained reordering across independent channels, transactions targeting overlapping addresses will pass each other, causing catastrophic RAW, WAR, and WAW data corruption.

To solve this data dependency crisis, computer architects use **AXI Transaction Ordering Rules** and **Interconnect ID Hazard Mitigation Units**.

By combining transaction identification tags (`ARID`, `AWID`, `RID`, `BID`) with combinational address overlap comparators in crossbar switches, interconnects allow independent memory accesses to execute out-of-order at full multi-gigahertz speeds while enforcing strict in-order execution for transactions targeting overlapping memory addresses.

---

## The Bank Deposit and Withdrawal Letters: An Everyday Mental Model

To build an intuitive, crystal-clear mental model of AXI transaction ordering rules and interconnect hazard mitigation before inspecting gate-level address comparators and transaction state tables, let us consider an everyday analogy: **The Bank Branch and the Postal Mailboxes**.

Imagine a bank account holder (**The CPU Master Core**) communicating with a bank branch clerk (**The Memory Target Slave**).

```text
THE BANK MAILBOXES METAPHOR

 Account Holder (CPU Master)                  Bank Branch Clerk (Memory Slave)
 ┌───────────────────────────┐                ┌───────────────────────────┐
 │ Account #42 Ledger        │                │ Bank Vault Account #42    │
 └─────────────┬─────────────┘                └─────────────┬─────────────┘
               │                                            │
               ▼                                            ▼
 ┌────────────────────────────────────────────────────────────────────────┐
 │ TWO SEPARATE POST OFFICE MAILBOXES                                     │
 │  * Red Mailbox  : Write/Deposit Letters Only  (AW/W Channels)          │
 │  * Blue Mailbox : Read/Balance Query Letters  (AR Channel)            │
 └────────────────────────────────────────────────────────────────────────┘
```

The account holder communicates with the bank by posting letters through two separate mailboxes on the street corner:
* **The Red Mailbox (Write Address/Data Channels `AW`/`W`)**: Used exclusively for mailing deposit slips ("Write $100 into Account #42").
* **The Blue Mailbox (Read Address Channel `AR`)**: Used exclusively for mailing balance queries ("Tell me the current balance of Account #42").

The post office (**The Interconnect Crossbar Matrix**) uses two separate mail trucks (**Independent Channels**) to pick up letters from the Red and Blue mailboxes and deliver them to the bank branch.

Let us observe two different operational scenarios when the account holder mails letters:

---

### Scenario 1: Un-Tracked Mail Delivery (RAW Hazard Data Corruption)

At 9:00 AM, the account holder drops two letters into the street mailboxes:
1. At 9:00:00 AM, they drop a deposit slip into the **Red Mailbox**: *"Deposit $100 into Account #42"* (**`STORE Account #42 = 100`**).
2. At 9:00:05 AM, they drop a balance query into the **Blue Mailbox**: *"What is the current balance of Account #42?"* (**`LOAD Account #42`**).

Now, trace how the post office delivers these two letters:
* The Blue Mail Truck (carrying the balance query) drives fast on the highway and arrives at the bank at 10:00 AM.
* The Red Mail Truck (carrying the deposit slip) gets stuck in traffic and arrives at the bank at 10:15 AM!

```text
UN-TRACKED MAIL DELIVERY TIMELINE (RAW HAZARD)

 09:00 AM: Drop Deposit $100 into Red Mailbox. Drop Balance Query into Blue Mailbox.
 10:00 AM: Bank receives Blue Letter (Query) FIRST ──► Bank Clerk reads: "Balance = $0!"
 10:15 AM: Bank receives Red Letter (Deposit) SECOND ─► Bank Clerk deposits $100.
 (Account holder receives a statement saying "Balance = $0"! Financial confusion!)
```

Look at the financial disaster:
* The bank clerk read the query letter at 10:00 AM, saw `Balance = $0`, and mailed a statement back saying `$0`.
* The deposit letter arrived 15 minutes later!
* The account holder receives an official statement saying their balance is `$0`, even though they deposited `$100` *before* asking for the balance!

---

### Scenario 2: The Tracking Number Rule (AXI ID Transaction Ordering)

To stop out-of-order delivery errors, the post office introduces an official **Tracking Number Rule (AXI ID Tagging)**:

When dropping letters into the mailboxes, the account holder stamps each letter with a **Tracking Number**:

$$\text{Same Tracking ID Number } (\text{Tracking ID \#7}) \implies \mathbf{\text{MUST BE DELIVERED IN STRICT ORDER OF POSTING!}}$$

$$\text{Different Tracking ID Numbers } (\text{ID \#7 vs ID \#9}) \implies \mathbf{\text{MAY BE DELIVERED IN ANY ORDER!}}$$

```text
THE POST OFFICE TRACKING NUMBER RULE

 Rule 1: Letters stamped with the EXACT SAME Tracking ID (ID #7 & ID #7)
         The post office MUST deliver Letter 1 BEFORE Letter 2!

 Rule 2: Letters stamped with DIFFERENT Tracking IDs (ID #7 & ID #9)
         The post office MAY deliver Letter 9 before Letter 7!
```

Let us watch how the post office processes the two letters under Scenario 2:

#### Case A: Transactions Target DIFFERENT Memory Accounts (ID #7 vs ID #9)
* Letter 1 (Red Mailbox): "Deposit $100 into Account #42" (**Tracking ID #7**).
* Letter 2 (Blue Mailbox): "What is the balance of Account #99?" (**Tracking ID #9**).
* Because the tracking IDs are DIFFERENT (#7 vs #9), the post office delivers Letter 2 first. 
* Is anyone harmed? **NO!** Account #42 and Account #99 are completely independent! Delivering Letter 2 first allowed the account holder to get their Account #99 balance 15 minutes earlier without corrupting Account #42!

#### Case B: Transactions Target the SAME Memory Account (ID #7 & ID #7 — Hazard Mitigation!)
* Letter 1 (Red Mailbox): "Deposit $100 into Account #42" (**Tracking ID #7**).
* Letter 2 (Blue Mailbox): "What is the balance of Account #42?" (**Tracking ID #7**).
* Because both letters carry the **EXACT SAME Tracking ID (#7)**, the post office sorting clerk sees the matching ID!
* The sorting clerk holds Letter 2 at the post office until Letter 1 has been delivered and acknowledged by the bank (**Interconnect Hazard Mitigation**)!
* Letter 1 arrives at the bank first ($100 deposited). Letter 2 arrives second (reads balance = $100).
* The account holder receives the correct statement: **`Balance = $100`**!

```text
HAZARD MITIGATION AT THE SORTING OFFICE

 Post Office detects Letter 1 and Letter 2 both have Tracking ID #7!
 Sorting Clerk STALLS Letter 2 (Blue Mailbox) until Letter 1 (Red Mailbox) completes!
 (Letter 1 delivered first -> $100 deposited -> Letter 2 delivered second -> Sees $100!)
```

This post office tracking system is the exact physical analogue of **AXI Transaction Ordering Rules and Hazard Mitigation**:
* The account holder is a **Master IP Core (CPU, GPU, DMA)**.
* The bank clerk is a **Slave Memory Target (SRAM, DRAM Controller)**.
* The Red and Blue Mailboxes are the **Independent Write (`AW`/`W`) and Read (`AR`) Channels**.
* The post office sorting office is the **AXI Interconnect Crossbar Matrix**.
* Tracking ID numbers are **AXI Transaction ID Tags (`ARID`, `AWID`)**.
* Holding Letter 2 at the sorting office is **Interconnect Address Overlap Hazard Mitigation (`ARREADY = 0`)**.

---

## Primitive 1: AXI Transaction Ordering Rules

Now that we possess an intuitive mental model of tracking numbers and sorting office holds, let us examine the formal, rigorous engineering mechanics of **AXI Transaction Ordering Rules**.

In the AXI4 protocol specification, transaction ordering is governed by three fundamental rules that dictate when interconnect crossbar switches and slave memory targets are permitted to reorder memory operations.

---

### Rule 1: The Same-ID In-Order Invariant

> **Rule 1 (Same-ID Ordering Invariant)**: Transactions issued by a master core on the same channel carrying the **exact same ID tag** (`ARID_1 == ARID_2` or `AWID_1 == AWID_2`) MUST be processed and returned by interconnects and slaves in **strict, in-order program sequence**.

$$\text{If } \text{ARID}_1 == \text{ARID}_2 \quad \mathbf{\text{AND}} \quad \text{Request}_1 \prec \text{Request}_2 \implies \mathbf{\text{Response}_1 \prec \text{Response}_2}$$

```text
SAME-ID IN-ORDER RULE ENFORCEMENT

 Read Address Channel (AR) : [ ARID = 5 (Addr 0x1000) ] ──► [ ARID = 5 (Addr 0x1004) ]
                             (Request 1 Issued First)        (Request 2 Issued Second)

 Read Data Channel (R)     : [ RID = 5 (Data 0x1000)  ] ──► [ RID = 5 (Data 0x1004)  ]
                             (Response 1 Returned FIRST)     (Response 2 Returned SECOND)
 (Interconnect and Slaves are FORBIDDEN from swapping responses for identical IDs!)
```

#### Microarchitectural Meaning of Rule 1:
If a CPU core issues twenty consecutive read requests to an array using the same ID tag (`ARID = 5`), the interconnect and memory targets are **strictly forbidden** from returning the array elements out of order. 

Element 0 *must* return first, Element 1 *must* return second, and so on. This guarantees that simple software loops reading contiguous arrays never receive scrambled data inside CPU registers.

---

### Rule 2: The Different-ID Reordering Invariant

> **Rule 2 (Different-ID Reordering Invariant)**: Transactions issued by a master core carrying **different ID tags** (`ARID_1 \neq ARID_2` or `AWID_1 \neq AWID_2`) have **NO implicit ordering relationship**. Interconnect crossbar matrices and slave targets are free to reorder them to maximize memory throughput.

$$\text{If } \text{ARID}_1 \neq \text{ARID}_2 \implies \mathbf{\text{Responses MAY arrive in ANY order: } (\text{Resp}_1 \prec \text{Resp}_2) \quad \text{OR} \quad (\text{Resp}_2 \prec \text{Resp}_1)}$$

```text
DIFFERENT-ID REORDERING FREEDOM

 Read Address Channel (AR) : [ ARID = 1 (Slow DRAM) ] ──► [ ARID = 2 (Fast SRAM) ]
                             (Request 1 Issued First)      (Request 2 Issued Second)

 Read Data Channel (R)     : [ RID = 2 (Fast SRAM Data) ] ──► [ RID = 1 (Slow DRAM Data) ]
                             (Response 2 Returned FIRST!)    (Response 1 Returned SECOND!)
 (Interconnect reorders responses to eliminate head-of-line blocking!)
```

#### Microarchitectural Meaning of Rule 2:
If Request 1 (`ARID = 1`) targets slow off-chip DRAM ($100\text{-cycle}$ latency) and Request 2 (`ARID = 2`) targets fast on-chip SRAM ($2\text{-cycle}$ latency), Rule 2 allows the fast SRAM data to return on the `R` channel **48 clock cycles ahead of the slow DRAM data**! 

The interconnect eliminates head-of-line blocking while maintaining $100\%$ tracking accuracy via the unique ID tags.

---

### Rule 3: The Inter-Channel Read vs. Write Independence Rule

> **Rule 3 (Inter-Channel Read/Write Independence)**: Read transactions (`AR` / `R` channels) and Write transactions (`AW` / `W` / `B` channels) have **NO implicit ordering relationship between each other, EVEN IF THEY SHARE THE EXACT SAME ID TAG (`ARID == AWID`)**!

$$\text{EVEN IF } \text{ARID} == \text{AWID} \implies \mathbf{\text{NO ORDERING IS GUARANTEED BETWEEN AR AND AW CHANNELS!}}$$

```text
INTER-CHANNEL READ/WRITE INDEPENDENCE HAZARD

 Write Address Channel (AW) : [ AWADDR = 0x1000, AWID = 5 ] ──► (Dispatched on Cycle 0)
 Read Address Channel (AR)  : [ ARADDR = 0x1000, ARID = 5 ] ──► (Dispatched on Cycle 1)

 Physical Interconnect State:
 AW channel and AR channel travel over SEPARATE PHYSICAL WIRES!
 The Read Address ARADDR = 0x1000 MAY ARRIVE AT THE SLAVE BEFORE AWADDR = 0x1000!
```

#### Why Rule 3 Is a Major Hazard for Software Engineers:
This rule surprises many novice hardware designers! 

Because the Read Address channel (`AR`) and Write Address channel (`AW`) consist of physically separate copper wires on the silicon die, driving `AWID = 5` and `ARID = 5` with the same ID value does **NOT** force the interconnect to process the write before the read!

If a master core issues a write to address $A$ on `AW` followed by a read to address $A$ on `AR`:
* The AXI protocol permits the read request on `AR` to reach the slave memory target **before** the write request on `AW`!
* The read request will return stale data, creating a **Read-After-Write (RAW) Hazard**!

How do we prevent this RAW data corruption when reads and writes target overlapping memory addresses? We must employ **Interconnect ID Hazard Mitigation**.

---

## Primitive 2: Interconnect ID Hazard Mitigation

To prevent Read-After-Write (RAW), Write-After-Read (WAR), and Write-After-Write (WAW) data corruption across independent AXI channels, digital logic designs use **Interconnect ID Hazard Mitigation**.

Hazard mitigation can be enforced at two distinct hardware locations:
1. **Master-Side Software/Hardware Serialization (Barrier / Response Waiting)**
2. **Interconnect-Side Address Overlap Hazard Detection Circuits**

```text
INTERCONNECT HAZARD MITIGATION ARCHITECTURES

                   HAZARD MITIGATION MECHANISMS
                                  │
         ┌────────────────────────┴────────────────────────┐
         ▼                                                 ▼
 MASTER-SIDE SERIALIZATION                        INTERCONNECT-SIDE ADDRESS OVERLAP DETECTOR
 * Master waits for Write Response (B)            * Crossbar contains Address Comparators.
   before issuing dependent Read (AR).            * Detects ARADDR == AWADDR collisions.
 * Uses explicit Memory Barrier instructions.      * Stalls ARREADY = 0 until AW/W/B finishes!
```

---

### Mechanism 1: Master-Side Serialization (Waiting for Write Response `B`)

The simplest, safest way for a Master IP core to prevent a RAW hazard when writing to address $A$ and then reading from address $A$ is **Write Response Serialization**:

1. **Step 1 (Write Dispatch)**: The master issues `AWADDR = A` on the Write Address channel and `WDATA` on the Write Data channel.
2. **Step 2 (Mandatory Stall)**: The master **stalls its Read Address channel dispatch (`ARVALID = 0`)**! It refuses to issue `ARADDR = A`.
3. **Step 3 (Write Response Confirmation)**: The master waits until the slave target processes the write and returns a completion acknowledgment on the Write Response channel:

$$\text{Write Response Received} \iff (\text{BVALID} == 1) \quad \mathbf{\text{AND}} \quad (\text{BREADY} == 1) \quad \mathbf{\text{AND}} \quad (\text{BID} == \text{AWID})$$

4. **Step 4 (Read Dispatch)**: Once `BVALID && BREADY` is confirmed, the master knows the write payload is safely written inside the memory cells. The master now un-stalls and dispatches `ARADDR = A` on the Read Address channel!

```text
MASTER-SIDE WRITE RESPONSE SERIALIZATION TIMELINE

 Cycle 0 : Master issues AWADDR = 0x1000 and WDATA = 0x12345678
           Master STALLS AR Channel (ARVALID = 0)!

 Cycle 5 : Slave finishes write and returns BVALID = 1 (BID = AWID) on B Channel!
           Master receives Write Response (BVALID && BREADY == 1).

 Cycle 6 : Master UN-STALLS AR Channel! Issues ARADDR = 0x1000.
           (Read is GUARANTEED to see new updated value 0x12345678!)
```

#### The Performance Cost:
While Master-Side Serialization is $100\%$ safe, it forces the master to pay the full round-trip write response latency ($T_{\text{write\_resp}} \approx 10 \text{ to } 30\text{ clock cycles}$) before issuing the read request, introducing pipeline stalls.

---

### Mechanism 2: Interconnect-Side Address Overlap Hazard Detection

To avoid master pipeline stalls, high-performance AXI Crossbar Matrix switches incorporate **Hardware Address Overlap Hazard Detectors**.

Inside the crossbar matrix switch, an active tracking table records the physical address ranges of all currently in-flight, un-committed write transactions sitting in the Write Address (`AW`) and Write Data (`W`) channels.

When a new read address request arrives on the `AR` channel:

The crossbar passes the incoming `ARADDR` through a bank of **parallel Address Overlap Comparators**:

$$\text{Hazard\_Condition} = \left( (\text{ARADDR} \ \ \& \ \ \sim 63) == (\text{AWADDR}_{\text{in\_flight}} \ \ \& \ \ \sim 63) \right) \quad \mathbf{\text{AND}} \quad (\text{AW\_Active} == 1)$$

Where:
* $\text{ARADDR}$ is the incoming read block address.
* $\text{AWADDR}_{\text{in\_flight}}$ is the block address of an active, un-committed write transaction.
* $\sim 63$ masks out the lower 6 offset bits to compare 64-byte cache line block addresses.

```text
INTERCONNECT HARDWARE ADDRESS OVERLAP COMPARATOR

 Incoming Read Address ARADDR (0x1000)
       │
       ▼
 ┌─────────────────────────────────────────────────────────────┐
 │ In-Flight Write Address Tracking Table                      │
 │ Slot 0: AWADDR = 0x5000 (Active Write)                      │
 │ Slot 1: AWADDR = 0x1000 (Active Write) ◄── MATCH DETECTED!  │
 └─────────────┬───────────────────────────────────────────────┘
               │
               ▼
      Hazard_Condition = 1 (RAW HAZARD RISKS DATA CORRUPTION!)
               │
               ▼
 [ Interconnect Crossbar de-asserts ARREADY = 0 to Master! ]
 (Stalls Read Address Channel until Slot 1 Write Completes!)
```

#### How the Crossbar Resolves the Hazard Automatically:

1. **Hazard Detected ($\text{Hazard\_Condition} == 1$)**:
   The crossbar detects that the incoming read address (`ARADDR = 0x1000`) targets the **exact same 64-byte memory block** as an active, un-committed write transaction (`AWADDR = 0x1000`).
2. **Interconnect Stalling**:
   The crossbar de-asserts the read address ready signal:

$$\text{ARREADY} \Leftarrow 0$$

   The master's read address request is held at the input port of the crossbar.
3. **Write Priority Drain**:
   The crossbar prioritizes the `AW` and `W` channels for address `0x1000`, driving the write transaction to the slave target.
4. **Hazard Cleared**:
   As soon as the slave target acknowledges the write on the `B` channel (`BVALID && BREADY == 1`), the crossbar removes address `0x1000` from its active write tracking table.
5. **Read Release**:
   The crossbar re-asserts **$\text{ARREADY} \Leftarrow 1$**, allowing the read address to proceed to the slave target!

Look at what the Interconnect Hazard Detector achieved:
* Independent read requests targeting different addresses (`ARADDR = 0x2000`) pass through the crossbar with **zero stall cycles ($1\text{-cycle}$ latency)**!
* Only read requests targeting overlapping write addresses (`ARADDR = 0x1000`) are stalled.
* $100\%$ data correctness is maintained automatically in hardware without requiring the software programmer or CPU pipeline to insert manual barrier instructions for every access!

---

## Summary of AXI4 Data Dependency Hazards

The following table summarizes the three fundamental memory data dependency hazards, their physical causes across AXI channels, and their hardware mitigation strategies:

```text
AXI4 DATA DEPENDENCY HAZARD MITIGATION MATRIX

 Hazard Type              │ Physical Channel Sequence │ Hazard Mechanism               │ Hardware Mitigation Strategy
──────────────────────────┼───────────────────────────┼────────────────────────────────┼─────────────────────────────────
 Read-After-Write (RAW)   │ STORE A followed by       │ Read on AR channel passes      │ Crossbar holds ARREADY=0 until
                          │ LOAD A                    │ un-committed Write on AW channel│ B channel confirms write completion.
──────────────────────────┼───────────────────────────┼────────────────────────────────┼─────────────────────────────────
 Write-After-Read (WAR)   │ LOAD A followed by        │ Write on AW channel passes     │ Crossbar holds AWREADY=0 until
                          │ STORE A                   │ un-completed Read on AR channel│ R channel receives final RLAST data.
──────────────────────────┼───────────────────────────┼────────────────────────────────┼─────────────────────────────────
 Write-After-Write (WAW)  │ STORE A = 10 followed by  │ Store 2 on AW channel passes   │ Master uses same AWID tag (forces
                          │ STORE A = 20              │ Store 1 on AW channel          │ in-order) or waits for B1 response.
```

---

## Real-World Silicon Engineering: ID Tag Remapping and Reorder Buffer Sizes

In commercial System-on-Chip design, implementing out-of-order transaction ID tagging requires balancing hardware tracking table capacity against silicon area.

### 1. Reorder Buffer (ROB) Depth in Master IP Cores

When a high-performance CPU core or GPU engine issues $K$ outstanding read transactions with different ID tags (`ARID = 1 \dots K$), the master core must allocate an internal hardware tracking slot for every active ID tag:

```text
MASTER REORDER BUFFER (ROB) TRACKING TABLE

 Slot Index │ Active ARID Tag │ Target CPU Register │ Status
────────────┼─────────────────┼─────────────────────┼───────────────────────────────
   Slot 0   │   ARID = 1      │     Register R1     │ In-Flight (Waiting for DRAM)
   Slot 1   │   ARID = 2      │     Register R2     │ Returned! (Data in SRAM)
   Slot 2   │   ARID = 3      │     Register R5     │ In-Flight (Waiting for Flash)
   Slot 3   │   ARID = 4      │     Register R8     │ Free (Ready for new request)
```

If a master core supports **16 outstanding transactions** ($K = 16$), its internal Reorder Buffer must store 16 64-bit physical target addresses, 16 destination register IDs, and 16 status state registers.

#### What happens if the Master runs out of Reorder Buffer slots?
If all 16 tracking slots in the master's Reorder Buffer are occupied by in-flight transactions:
* The master core **CANNOT issue any new read or write address requests**, even if the AXI `AR` and `AW` channels are completely open and idle!
* The master asserts an internal **Reorder Buffer Full Stall**, freezing the instruction dispatch unit until an in-flight transaction completes and returns its data on `RID` / `BID`.

---

### 2. ID Tag Collapsing in Slave Memory Controllers

While high-performance CPU cores generate dozens of unique ID tags (`ARID = 0 \dots 15`), simple memory targets (such as an on-chip ROM block or a simple SPI flash controller) are built with minimal logic gates and **cannot process transactions out of order**.

How does a simple, in-order slave target interface with a complex, out-of-order AXI4 crossbar matrix?

The interconnect crossbar incorporates an **ID Tag Collapsing Bridge (In-Order Converter)**:

```text
ID TAG COLLAPSING BRIDGE (OUT-OF-ORDER TO IN-ORDER CONVERTER)

 Out-of-Order AXI4 Crossbar (IDs: 1, 2, 3, 4)
                       │
                       ▼
 ┌─────────────────────────────────────────────────────────────┐
 │ ID Tag Collapsing Bridge                                    │
 │  * Accepts out-of-order IDs from Crossbar.                  │
 │  * Forces all requests sent to Simple Slave to use ID = 0!  │
 │  * Buffers responses and returns them with original IDs!    │
 └─────────────────────┬───────────────────────────────────────┘
                       │
                       ▼
 Simple In-Order Slave Target (Sees ONLY ID = 0!)
```

1. The ID Collapsing Bridge accepts requests with different ID tags (`ARID = 1, 2, 3`) from the crossbar.
2. When forwarding requests to the simple slave, the bridge **replaces all ID tags with a single constant ID tag (`ARID = 0`)**!
3. The simple slave sees only `ARID = 0`, so it processes all transactions in strict, simple in-order sequence ($100\%$ spec compliance!).
4. The bridge receives the in-order responses (`RID = 0`), restores their original ID tags (`RID = 1, 2, 3`), and returns them across the crossbar to the master cores!

This bridging technique allows cheap, simple IP cores to be integrated seamlessly into complex out-of-order AXI4 interconnect matrices without redesigning the slave hardware.

---

## Solved Industrial Engineering Exercise: Quantitative AXI Transaction Ordering, RAW Hazard Mitigation, and Interconnect Stall Analysis

To consolidate your complete mastery of AXI transaction ordering rules, Same-ID vs. Different-ID invariants, Read-After-Write (RAW) hazard detection circuits, and interconnect stall timing calculations, we will now walk through a complete, step-by-step industrial hardware engineering problem.

---

### Scenario and Parameters

You are a senior microarchitect auditing the AXI4 crossbar interconnect of a $2.0\text{ GHz}$ 64-bit SoC processor ($T_{\text{clk}} = 0.50\text{ ns} = 500\text{ ps}$).

The interconnect connects a high-speed CPU Core Master to an On-Chip SRAM Slave Target ($2\text{-cycle}$ read/write access latency, $1.0\text{ ns}$).

```text
2.0 GHZ SOC INTERCONNECT WITH HARDWARE RAW HAZARD DETECTOR

 CPU Core Master (2.0 GHz) ──► [ AXI4 Crossbar (Hazard Detector) ] ──► SRAM Slave Target
 Clock T = 500 ps              AR & AW Channels Independent           Latency = 2 Cycles
```

#### Hardware Interconnect Specifications:
* CPU Clock Frequency: $f_{\text{clk}} = 2.0\text{ GHz}$ ($T_{\text{clk}} = 500\text{ ps}$).
* SRAM Read/Write Data Access Latency: $T_{\text{SRAM}} = 2\text{ clock cycles}$ ($1.0\text{ ns}$).
* Write Response Latency on `B` Channel: $T_{\text{response}} = 1\text{ clock cycle}$ ($0.5\text{ ns}$) after SRAM write completes.
* Crossbar Address Overlap Hazard Detector: Contains a 64-byte block address comparator comparing `ARADDR` vs `AWADDR`.

#### The Workload Instruction Stream:
At physical time $t = 0.0\text{ ns}$ (Clock Cycle 0), the CPU Core Master dispatches four memory instructions on four consecutive clock cycles ($t = 0, 1, 2, 3$):

* **Transaction 1 (Cycle 0)**: `STORE [Addr 0x0000_1000] = 0x1111_2222` (`AWID = 1`).
* **Transaction 2 (Cycle 1)**: `LOAD  R1, [Addr 0x0000_1000]` (`ARID = 1` — **RAW Hazard targeting address `0x1000`!**).
* **Transaction 3 (Cycle 2)**: `STORE [Addr 0x0000_2000] = 0x3333_4444` (`AWID = 2`).
* **Transaction 4 (Cycle 3)**: `LOAD  R2, [Addr 0x0000_2000]` (`ARID = 2` — **RAW Hazard targeting address `0x2000`!**).

#### Your Objective

1. Analyze **System 0 (Un-Mitigated Un-Buffered Interconnect — No Hazard Detection)**:
   * Trace the physical execution sequence on the `AW`, `W`, `B`, `AR`, and `R` channels.
   * Show why Transaction 2 (`LOAD R1, [0x1000]`) reads stale un-updated data (`0x0000_0000`) if the read address is not stalled.
2. Analyze **System 1 (AXI4 Crossbar WITH Address Overlap Hazard Mitigation)**:
   * Trace the exact clock cycle timeline and signal assertions (`ARREADY`, `BVALID`, `RVALID`) across all 4 transactions.
   * Show how the Crossbar Address Overlap Comparator detects `0x1000 == 0x1000`, stalls `ARREADY_2 = 0` for Transaction 2 until Transaction 1 completes on the `B` channel, and then releases Transaction 2.
   * Show that Transaction 2 reads the correct updated payload (`0x1111_2222`).
3. Calculate the total completion time $T_{\text{total}}$ (in clock cycles and nanoseconds) for all 4 transactions under System 1.
4. Compare Same-ID vs. Different-ID behavior: Show what happens if Transaction 3 (`STORE 0x2000`) was assigned `AWID = 1` instead of `AWID = 2`.
5. Verify mathematical, structural, and timing correctness.

---

### Step-by-Step Derivation

#### Step 1: Analyze System 0 (Un-Mitigated Interconnect — RAW Data Corruption)

Let us trace what happens if the interconnect lacks an Address Overlap Hazard Detector and does not stall the `AR` channel:

1. **Cycle 0 ($t = 0.0\text{ ns}$)**:
   * Transaction 1 (`STORE [0x1000]`): Dispatches `AWADDR = 0x1000` (`AWID = 1`) and `WDATA = 0x1111_2222`.
   * SRAM begins writing `0x1111_2222` to address `0x1000` ($2\text{-cycle}$ SRAM write latency $\implies$ completes at Cycle 2).
2. **Cycle 1 ($t = 0.5\text{ ns}$)**:
   * Transaction 2 (`LOAD R1, [0x1000]`): Dispatches `ARADDR = 0x1000` (`ARID = 1`).
   * **Un-Mitigated Failure**: Because `AR` and `AW` are independent channels, `ARADDR = 0x1000` is accepted immediately (`ARREADY = 1`)!
   * SRAM receives read address `0x1000` at Cycle 1.
   * **At Cycle 1, SRAM has NOT finished writing Transaction 1 yet!** (Transaction 1 finishes at Cycle 2).
3. **Cycle 3 ($t = 1.5\text{ ns}$)**:
   * SRAM returns data for Transaction 2 on the `R` channel: `RDATA = 0x0000_0000` (Stale data!).
   * Register `R1` receives `0x0000_0000`!

```text
SYSTEM 0 UN-MITIGATED RAW DATA CORRUPTION TIMELINE

 Cycle 0 : AW Channel ──► Dispatches AWADDR = 0x1000 (SRAM Write starts, finishes Cycle 2)
 Cycle 1 : AR Channel ──► Dispatches ARADDR = 0x1000 (UN-STALLED!)
           SRAM reads 0x1000 at Cycle 1 BEFORE Write completes!
 Cycle 3 : R Channel  ──► Returns STALE DATA 0x0000_0000 to Register R1! (DATA CORRUPTED!)
```

##### Failure Summary:
Without hazard mitigation, `LOAD R1, [0x1000]` read stale data because the read address on `AR` passed the write address on `AW` in mid-flight!

---

#### Step 2: Trace System 1 (AXI4 Crossbar WITH Address Overlap Hazard Mitigation)

Now let us trace physical execution when the AXI4 Crossbar includes a **Hardware Address Overlap Hazard Detector**.

##### 1. Cycle 0 ($t = 0.0\text{ ns}$):
* Transaction 1 (`STORE [0x1000]`): Dispatches `AWADDR = 0x1000` (`AWID = 1`) and `WDATA = 0x1111_2222`.
* Crossbar Hazard Detector records active write address `0x1000` in Slot 0 of its tracking table.
* SRAM target begins writing `0x1111_2222` to address `0x1000` ($2\text{ cycles}$ SRAM write delay $\implies$ completes at Cycle 2).

##### 2. Cycle 1 ($t = 0.5\text{ ns}$):
* Transaction 2 (`LOAD R1, [0x1000]`): CPU attempts to dispatch `ARADDR = 0x1000` (`ARID = 1`).
* **Crossbar Hazard Comparator Evaluation**:
  $$\text{Hazard\_Detect} = (\text{ARADDR } \text{0x1000} == \text{AWADDR\_Slot0 } \text{0x1000}) \quad \mathbf{\text{AND}} \quad (\text{Write\_Active} == 1)$$
  $$\text{Hazard\_Detect} = 1 \quad (\mathbf{\text{RAW HAZARD DETECTED!}})$$
* **Hazard Mitigation Action**: The Crossbar **de-asserts `ARREADY = 0`** to the CPU!
* Transaction 2's read address is held at the input port of the crossbar.

##### 3. Cycle 2 ($t = 1.0\text{ ns}$):
* SRAM finishes writing `0x1111_2222` to address `0x1000`.
* SRAM drives Write Response on `B` channel: `BRESP = OKAY`, `BID = 1`, `BVALID = 1`.

##### 4. Cycle 3 ($t = 1.5\text{ ns}$):
* Master receives Write Response on `B` channel (`BVALID && BREADY == 1`).
* Transaction 1 is $100\%$ committed! Slot 0 is removed from the Crossbar Hazard Tracking Table.
* **Hazard Cleared**: $\text{Hazard\_Detect} \Leftarrow 0$.
* **Read Release**: The Crossbar re-asserts **`ARREADY = 1`**!
* Transaction 2's read address (`ARADDR = 0x1000`) is accepted by the SRAM target on Cycle 3!

##### 5. Cycle 5 ($t = 2.5\text{ ns}$):
* SRAM reads address `0x1000` (which now holds `0x1111_2222`!).
* SRAM returns `RDATA = 0x1111_2222`, `RID = 1`, `RVALID = 1` on `R` channel.
* Register `R1` receives **`0x1111_2222` (CORRECT UPDATED PAYLOAD!)**.

```text
SYSTEM 1 HAZARD-MITIGATED TIMING CHRONOLOGY (TRANS 1 & 2)

 Cycle 0 : AW Channel ──► Dispatches AWADDR = 0x1000 (Trans 1)
 Cycle 1 : AR Channel ──► CPU attempts ARADDR = 0x1000. HAZARD DETECTED!
                          Crossbar sets ARREADY = 0 (STALLED!).
 Cycle 2 : SRAM       ──► Completes write to 0x1000.
 Cycle 3 : B Channel  ──► Trans 1 Write Response BVALID = 1 received!
                          Crossbar clears hazard, sets ARREADY = 1!
                          Trans 2 ARADDR = 0x1000 accepted!
 Cycle 5 : R Channel  ──► Returns FRESH DATA 0x1111_2222 to Register R1! (SUCCESS!)
```

---

##### 6. Tracing Transactions 3 & 4 (Address `0x2000`):

* **Cycle 2 ($t = 1.0\text{ ns}$)**: Transaction 3 (`STORE [0x2000] = 0x3333_4444`, `AWID = 2`) is dispatched on `AW` channel.
  * Crossbar Hazard Detector records active write address `0x2000` in Slot 1.
* **Cycle 3 ($t = 1.5\text{ ns}$)**: Transaction 4 (`LOAD R2, [0x2000]`, `ARID = 2`) is attempted on `AR` channel.
  * Crossbar Hazard Comparator detects `0x2000 == 0x2000` $\implies$ Sets `ARREADY = 0` for `0x2000`!
* **Cycle 4**: Transaction 3 completes write at SRAM (`0x3333_4444`).
* **Cycle 5**: Transaction 3 Write Response returns on `B` channel (`BID = 2`). Hazard slot 1 cleared! `ARREADY = 1` re-asserted for `0x2000`.
* **Cycle 6**: Transaction 4 (`ARADDR = 0x2000`) accepted.
* **Cycle 8 ($t = 4.0\text{ ns}$)**: Transaction 4 returns `RDATA = 0x3333_4444` on `R` channel to `R2`.

---

#### Step 3: Calculate Total Completion Execution Time for System 1

Let us sum the total execution cycles from Cycle 0 to final completion:

* Cycle 0: Start of Transaction 1.
* Cycle 3: Transaction 1 Write completes ($B$ channel).
* Cycle 5: Transaction 2 Read completes (`R1 = 0x1111_2222`).
* Cycle 5: Transaction 3 Write completes ($B$ channel).
* Cycle 8: Transaction 4 Read completes (`R2 = 0x3333_4444`).

$$\text{Total Execution Cycles} = \mathbf{8 \text{ Clock Cycles}}$$

$$T_{\text{total}} = 8 \text{ cycles} \times 0.50\text{ ns/cycle} = \mathbf{4.00 \text{ nanoseconds}}$$

```text
SYSTEM 1 FINAL TIMING SUMMARY

 Transaction 1 (STORE 0x1000) : Dispatched Cycle 0 ──► B Response at Cycle 3 (1.5 ns)
 Transaction 2 (LOAD  0x1000) : Stalled Cycles 1..2 ──► R Data at Cycle 5 (2.5 ns)
 Transaction 3 (STORE 0x2000) : Dispatched Cycle 2 ──► B Response at Cycle 5 (2.5 ns)
 Transaction 4 (LOAD  0x2000) : Stalled Cycles 3..5 ──► R Data at Cycle 8 (4.0 ns)
 (All 4 transactions completed with 100% data correctness in 4.0 nanoseconds!)
```

---

#### Step 4: Evaluate Same-ID vs. Different-ID Impact

What would happen if Transaction 3 (`STORE 0x2000`) was assigned `AWID = 1` (same ID as Transaction 1) instead of `AWID = 2`?

* Under **Same-ID Rule 1**:
  * `AWID = 1` (Transaction 1) and `AWID = 1` (Transaction 3) share the same ID.
  * The interconnect and SRAM target **MUST process Transaction 1 before Transaction 3** on the `AW` channel.
  * Because Transaction 3 had `AWID = 2` (different ID), the crossbar was permitted to pipeline Transaction 3's address on `AW` at Cycle 2 *while Transaction 1 was still in flight*!
  * Using different IDs (`AWID = 1` vs `AWID = 2`) allowed Transaction 3's write address to be pipelined 2 clock cycles earlier, accelerating overall interconnect throughput!

---

### Sanity Check and Verification

Let us verify our mathematical, physical, and protocol state results against AXI4 rules:

1. **RAW Hazard Prevention Verification**:
   * Transaction 2 (`LOAD [0x1000]`) was stalled for 2 cycles (`ARREADY = 0`) until Transaction 1's Write Response (`BVALID && BREADY == 1`) confirmed write completion at Cycle 3.
   * `R1` received `0x1111_2222` (the newly written value), verifying $100\%$ RAW hazard elimination.
2. **Channel Independence Check**:
   * Transaction 3 (`AWADDR = 0x2000`) was dispatched on Cycle 2 over the `AW` channel while Transaction 2's read address was being held on the `AR` channel.
   * `AW` and `AR` channels operated concurrently without signal contention.
3. **Timing Closure Check**:
   * Total stream time = $4.00\text{ ns}$ ($8\text{ CPU clock cycles}$).
   * All 4 transactions (2 stores + 2 dependent loads) completed safely with zero data corruption.

All AXI4 transaction ordering rules, Same-ID vs Different-ID invariants, address overlap comparator state logic, and hazard mitigation stall metrics evaluate with 100% mathematical, physical, and logical precision.

---

## Key Output Primitives

This lesson formally delivers the following conceptual primitives to your digital logic engineering toolbox:

* **AXI Transaction Ordering Rule**: The set of protocol invariants governing memory transaction sequence, where transactions with identical ID tags on the same channel are strictly preserved in program order, transactions with different ID tags can be reordered freely, and read/write channels operate independently even when sharing identical ID tags.
* **Interconnect ID Hazard Mitigation**: The hardware address tracking and overlap comparison mechanism inside an AXI crossbar matrix that detects Read-After-Write (RAW), Write-After-Read (WAR), and Write-After-Write (WAW) collisions between independent channels, stalling address handshakes (`ARREADY = 0` / `AWREADY = 0`) until prior dependent transactions commit to prevent data corruption.
