---
title: "AXI Transaction Ordering Rules and Interconnect Hazard Mitigation"
---

# AXI Transaction Ordering Rules and Interconnect Hazard Mitigation

## The Out-of-Order Memory Hazard and Identical-ID Data Corruption

In high-performance System-on-Chip (SoC) microarchitecture, processing units—such as central processing unit (CPU) cores, graphics processing units (GPUs), and direct memory access (DMA) engines—communicate with memory targets across high-speed interconnect matrices. To achieve high memory throughput, advanced interconnect protocols such as the Advanced eXtensible Interface 4 (AXI4) decouple memory operations into five physically independent channels: Read Address (`AR`), Read Data (`R`), Write Address (`AW`), Write Data (`W`), and Write Response (`B`).

By separating reads and writes into independent channels, an AXI interconnect matrix allows read addresses and write addresses to be dispatched simultaneously across separate physical wires on the exact same clock cycle.

However, this independence introduces a severe microarchitectural data corruption hazard: **Inter-Channel Data Dependencies**.

Consider what happens inside an SoC when a CPU core executes a simple, high-frequency software sequence that modifies a variable at memory address $A$ and then immediately reads that exact same variable back to verify its value:

```c
// PROGRAMMER'S INTENDED SEQUENTIAL INSTRUCTION STREAM
STORE [0x1000] = 0x12345678; // Instruction 1: Write new value to Address 0x1000
LOAD  R1, [0x1000];          // Instruction 2: Read value from Address 0x1000 into Register R1
```

Let us trace how these two instructions travel across an AXI4 interconnect matrix:

1. **Instruction 1 (`STORE [0x1000] = 0x12345678`)**: The CPU dispatches the write target address `0x1000` onto the Write Address channel (`AWADDR = 0x1000`) and dispatches the data payload `0x12345678` onto the Write Data channel (`WDATA = 0x12345678`).
2. **Instruction 2 (`LOAD R1, [0x1000]`)**: On the very next clock cycle, the CPU dispatches the read target address `0x1000` onto the Read Address channel (`ARADDR = 0x1000`).

Now, observe the physical disaster that can occur inside the interconnect crossbar matrix:

* The Write Address (`AW`) channel is currently busy processing write buffer updates for another core. The write address `0x1000` is queued inside an interconnect buffer.
* Meanwhile, the Read Address (`AR`) channel is completely open and idle! The read address `0x1000` zooms past the write address, crossing the crossbar matrix and reaching the SRAM memory target **FIRST**!
* The SRAM memory target receives the read address `0x1000` before the write address `0x1000` arrives. The SRAM reads its storage cells and returns the **OLD, un-updated value (`0x00000000`)** back to CPU register `R1`!
* A few nanoseconds later, the write address `0x1000` finally arrives at the SRAM, and the SRAM writes `0x12345678` into memory.

```text
THE READ-AFTER-WRITE (RAW) INTERCONNECT HAZARD

 CPU Core Execution Stream
 1. STORE [0x1000] = 0x12345678 ──► Queued in Write Address Channel (AW)
 2. LOAD  R1, [0x1000]          ──► Zooms ahead on Read Address Channel (AR)!
                                    │
                                    ▼
 SRAM Target Receives Read Address 0x1000 FIRST!
 SRAM Returns OLD STALE DATA (0x00000000) to Register R1!
 (CPU receives wrong value! Software algorithm corrupted!)
```

Examine this hardware result:
Register `R1` received `0x00000000` instead of `0x12345678`! 

The program executed a **Read-After-Write (RAW) Hazard**. Even though the programmer explicitly wrote the store instruction *before* the load instruction, the independent physical channels of the interconnect allowed the read to pass the write in mid-flight, returning stale, corrupted data to the CPU!

Similar hazards occur across other combinations of memory accesses targeting the exact same address:
* **Write-After-Write (WAW) Hazard**: Two consecutive store instructions write different values to address $A$ (`STORE A = 10` followed by `STORE A = 20`). If the interconnect reorders the two write transactions, the memory target receives `STORE A = 20` first and `STORE A = 10` second. The memory target ends up storing `10` instead of `20`!
* **Write-After-Read (WAR) Hazard**: A read instruction (`LOAD A`) is followed by a write instruction (`STORE A = 50`). If the write passes the read in mid-flight, the load instruction reads the new value `50` instead of the original value!

We face a fundamental hardware design dilemma:
* If we forbid all reordering across the interconnect, fast independent memory transactions targeting different addresses are forced to execute sequentially, destroying parallel memory throughput.
* If we allow un-constrained reordering across independent channels, transactions targeting overlapping addresses will pass each other, causing catastrophic RAW, WAR, and WAW data corruption.

To solve this data dependency crisis, computer architects use **AXI Transaction Ordering Rules** and **Interconnect ID Hazard Mitigation Units**.

By combining transaction identification tags (`ARID`, `AWID`, `RID`, `BID`) with combinational address overlap comparators in crossbar switches, interconnects allow independent memory accesses to execute out-of-order at full multi-gigahertz speeds while enforcing strict in-order execution for transactions targeting overlapping memory addresses.


### Scenario 1: Un-Tracked Mail Delivery (RAW Hazard Data Corruption)

At 9:00 AM, the account holder drops two letters into the street mailboxes:
1. At 9:00:00 AM, they drop a deposit slip into the **Red Mailbox**: *"Deposit $100 into Account #42"* (**`STORE Account #42 = 100`**).
2. At 9:00:05 AM, they drop a balance query into the **Blue Mailbox**: *"What is the current balance of Account #42?"* (**`LOAD Account #42`**).

Now, trace how the post office delivers these two letters:
* The Blue Mail Truck (carrying the balance query) drives fast on the highway and arrives at the bank at 10:00 AM.
* The Red Mail Truck (carrying the deposit slip) gets stuck in traffic and arrives at the bank at 10:15 AM!

```text
UN-TRACKED MAIL DELIVERY TIMELINE (RAW HAZARD)

 09:00 AM: Drop Deposit $100 into Red Mailbox. Drop Balance Query into Blue Mailbox.
 10:00 AM: Bank receives Blue Letter (Query) FIRST ──► Bank Clerk reads: "Balance = $0!"
 10:15 AM: Bank receives Red Letter (Deposit) SECOND ─► Bank Clerk deposits $100.
 (Account holder receives a statement saying "Balance = $0"! Financial confusion!)
```

Look at the financial disaster:
* The bank clerk read the query letter at 10:00 AM, saw `Balance = $0`, and mailed a statement back saying `$0`.
* The deposit letter arrived 15 minutes later!
* The account holder receives an official statement saying their balance is `$0`, even though they deposited `$100` *before* asking for the balance!


## Primitive 1: AXI Transaction Ordering Rules

Now that we possess an intuitive mental model of tracking numbers and sorting office holds, let us examine the formal, rigorous engineering mechanics of **AXI Transaction Ordering Rules**.

In the AXI4 protocol specification, transaction ordering is governed by three fundamental rules that dictate when interconnect crossbar switches and slave memory targets are permitted to reorder memory operations.


### Rule 2: The Different-ID Reordering Invariant

> **Rule 2 (Different-ID Reordering Invariant)**: Transactions issued by a master core carrying **different ID tags** (`ARID_1 \neq ARID_2` or `AWID_1 \neq AWID_2`) have **NO implicit ordering relationship**. Interconnect crossbar matrices and slave targets are free to reorder them to maximize memory throughput.

$$\text{If } \text{ARID}_1 \neq \text{ARID}_2 \implies \mathbf{\text{Responses MAY arrive in ANY order: } (\text{Resp}_1 \prec \text{Resp}_2) \quad \text{OR} \quad (\text{Resp}_2 \prec \text{Resp}_1)}$$

```text
DIFFERENT-ID REORDERING FREEDOM

 Read Address Channel (AR) : [ ARID = 1 (Slow DRAM) ] ──► [ ARID = 2 (Fast SRAM) ]
                             (Request 1 Issued First)      (Request 2 Issued Second)

 Read Data Channel (R)     : [ RID = 2 (Fast SRAM Data) ] ──► [ RID = 1 (Slow DRAM Data) ]
                             (Response 2 Returned FIRST!)    (Response 1 Returned SECOND!)
 (Interconnect reorders responses to eliminate head-of-line blocking!)
```

#### Microarchitectural Meaning of Rule 2:
If Request 1 (`ARID = 1`) targets slow off-chip DRAM ($100\text{-cycle}$ latency) and Request 2 (`ARID = 2`) targets fast on-chip SRAM ($2\text{-cycle}$ latency), Rule 2 allows the fast SRAM data to return on the `R` channel **48 clock cycles ahead of the slow DRAM data**! 

The interconnect eliminates head-of-line blocking while maintaining $100\%$ tracking accuracy via the unique ID tags.


## Primitive 2: Interconnect ID Hazard Mitigation

To prevent Read-After-Write (RAW), Write-After-Read (WAR), and Write-After-Write (WAW) data corruption across independent AXI channels, digital logic designs use **Interconnect ID Hazard Mitigation**.

Hazard mitigation can be enforced at two distinct hardware locations:
1. **Master-Side Software/Hardware Serialization (Barrier / Response Waiting)**
2. **Interconnect-Side Address Overlap Hazard Detection Circuits**

```text
INTERCONNECT HAZARD MITIGATION ARCHITECTURES

                   HAZARD MITIGATION MECHANISMS
                                  │
         ┌────────────────────────┴────────────────────────┐
         ▼                                                 ▼
 MASTER-SIDE SERIALIZATION                        INTERCONNECT-SIDE ADDRESS OVERLAP DETECTOR
 * Master waits for Write Response (B)            * Crossbar contains Address Comparators.
   before issuing dependent Read (AR).            * Detects ARADDR == AWADDR collisions.
 * Uses explicit Memory Barrier instructions.      * Stalls ARREADY = 0 until AW/W/B finishes!
```


### Mechanism 2: Interconnect-Side Address Overlap Hazard Detection

To avoid master pipeline stalls, high-performance AXI Crossbar Matrix switches incorporate **Hardware Address Overlap Hazard Detectors**.

Inside the crossbar matrix switch, an active tracking table records the physical address ranges of all currently in-flight, un-committed write transactions sitting in the Write Address (`AW`) and Write Data (`W`) channels.

When a new read address request arrives on the `AR` channel:

The crossbar passes the incoming `ARADDR` through a bank of **parallel Address Overlap Comparators**:

$$\text{Hazard\_Condition} = \left( (\text{ARADDR} \ \ \& \ \ \sim 63) == (\text{AWADDR}_{\text{in\_flight}} \ \ \& \ \ \sim 63) \right) \quad \mathbf{\text{AND}} \quad (\text{AW\_Active} == 1)$$

Where:
* $\text{ARADDR}$ is the incoming read block address.
* $\text{AWADDR}_{\text{in\_flight}}$ is the block address of an active, un-committed write transaction.
* $\sim 63$ masks out the lower 6 offset bits to compare 64-byte cache line block addresses.

```text
INTERCONNECT HARDWARE ADDRESS OVERLAP COMPARATOR

 Incoming Read Address ARADDR (0x1000)
       │
       ▼
 ┌─────────────────────────────────────────────────────────────┐
 │ In-Flight Write Address Tracking Table                      │
 │ Slot 0: AWADDR = 0x5000 (Active Write)                      │
 │ Slot 1: AWADDR = 0x1000 (Active Write) ◄── MATCH DETECTED!  │
 └─────────────┬───────────────────────────────────────────────┘
               │
               ▼
      Hazard_Condition = 1 (RAW HAZARD RISKS DATA CORRUPTION!)
               │
               ▼
 [ Interconnect Crossbar de-asserts ARREADY = 0 to Master! ]
 (Stalls Read Address Channel until Slot 1 Write Completes!)
```

#### How the Crossbar Resolves the Hazard Automatically:

1. **Hazard Detected ($\text{Hazard\_Condition} == 1$)**:
   The crossbar detects that the incoming read address (`ARADDR = 0x1000`) targets the **exact same 64-byte memory block** as an active, un-committed write transaction (`AWADDR = 0x1000`).
2. **Interconnect Stalling**:
   The crossbar de-asserts the read address ready signal:

$$\text{ARREADY} \Leftarrow 0$$

   The master's read address request is held at the input port of the crossbar.
3. **Write Priority Drain**:
   The crossbar prioritizes the `AW` and `W` channels for address `0x1000`, driving the write transaction to the slave target.
4. **Hazard Cleared**:
   As soon as the slave target acknowledges the write on the `B` channel (`BVALID && BREADY == 1`), the crossbar removes address `0x1000` from its active write tracking table.
5. **Read Release**:
   The crossbar re-asserts **$\text{ARREADY} \Leftarrow 1$**, allowing the read address to proceed to the slave target!

Look at what the Interconnect Hazard Detector achieved:
* Independent read requests targeting different addresses (`ARADDR = 0x2000`) pass through the crossbar with **zero stall cycles ($1\text{-cycle}$ latency)**!
* Only read requests targeting overlapping write addresses (`ARADDR = 0x1000`) are stalled.
* $100\%$ data correctness is maintained automatically in hardware without requiring the software programmer or CPU pipeline to insert manual barrier instructions for every access!


## Real-World Silicon Engineering: ID Tag Remapping and Reorder Buffer Sizes

In commercial System-on-Chip design, implementing out-of-order transaction ID tagging requires balancing hardware tracking table capacity against silicon area.

### 1. Reorder Buffer (ROB) Depth in Master IP Cores

When a high-performance CPU core or GPU engine issues $K$ outstanding read transactions with different ID tags (`ARID = 1 \dots K$), the master core must allocate an internal hardware tracking slot for every active ID tag:

```text
MASTER REORDER BUFFER (ROB) TRACKING TABLE

 Slot Index │ Active ARID Tag │ Target CPU Register │ Status
────────────┼─────────────────┼─────────────────────┼───────────────────────────────
   Slot 0   │   ARID = 1      │     Register R1     │ In-Flight (Waiting for DRAM)
   Slot 1   │   ARID = 2      │     Register R2     │ Returned! (Data in SRAM)
   Slot 2   │   ARID = 3      │     Register R5     │ In-Flight (Waiting for Flash)
   Slot 3   │   ARID = 4      │     Register R8     │ Free (Ready for new request)
```

If a master core supports **16 outstanding transactions** ($K = 16$), its internal Reorder Buffer must store 16 64-bit physical target addresses, 16 destination register IDs, and 16 status state registers.

#### What happens if the Master runs out of Reorder Buffer slots?
If all 16 tracking slots in the master's Reorder Buffer are occupied by in-flight transactions:
* The master core **CANNOT issue any new read or write address requests**, even if the AXI `AR` and `AW` channels are completely open and idle!
* The master asserts an internal **Reorder Buffer Full Stall**, freezing the instruction dispatch unit until an in-flight transaction completes and returns its data on `RID` / `BID`.


## Solved Industrial Engineering Exercise: Quantitative AXI Transaction Ordering, RAW Hazard Mitigation, and Interconnect Stall Analysis

To consolidate your complete mastery of AXI transaction ordering rules, Same-ID vs. Different-ID invariants, Read-After-Write (RAW) hazard detection circuits, and interconnect stall timing calculations, we will now walk through a complete, step-by-step industrial hardware engineering problem.


### Step-by-Step Derivation

#### Step 1: Analyze System 0 (Un-Mitigated Interconnect — RAW Data Corruption)

Let us trace what happens if the interconnect lacks an Address Overlap Hazard Detector and does not stall the `AR` channel:

1. **Cycle 0 ($t = 0.0\text{ ns}$)**:
   * Transaction 1 (`STORE [0x1000]`): Dispatches `AWADDR = 0x1000` (`AWID = 1`) and `WDATA = 0x1111_2222`.
   * SRAM begins writing `0x1111_2222` to address `0x1000` ($2\text{-cycle}$ SRAM write latency $\implies$ completes at Cycle 2).
2. **Cycle 1 ($t = 0.5\text{ ns}$)**:
   * Transaction 2 (`LOAD R1, [0x1000]`): Dispatches `ARADDR = 0x1000` (`ARID = 1`).
   * **Un-Mitigated Failure**: Because `AR` and `AW` are independent channels, `ARADDR = 0x1000` is accepted immediately (`ARREADY = 1`)!
   * SRAM receives read address `0x1000` at Cycle 1.
   * **At Cycle 1, SRAM has NOT finished writing Transaction 1 yet!** (Transaction 1 finishes at Cycle 2).
3. **Cycle 3 ($t = 1.5\text{ ns}$)**:
   * SRAM returns data for Transaction 2 on the `R` channel: `RDATA = 0x0000_0000` (Stale data!).
   * Register `R1` receives `0x0000_0000`!

```text
SYSTEM 0 UN-MITIGATED RAW DATA CORRUPTION TIMELINE

 Cycle 0 : AW Channel ──► Dispatches AWADDR = 0x1000 (SRAM Write starts, finishes Cycle 2)
 Cycle 1 : AR Channel ──► Dispatches ARADDR = 0x1000 (UN-STALLED!)
           SRAM reads 0x1000 at Cycle 1 BEFORE Write completes!
 Cycle 3 : R Channel  ──► Returns STALE DATA 0x0000_0000 to Register R1! (DATA CORRUPTED!)
```

##### Failure Summary:
Without hazard mitigation, `LOAD R1, [0x1000]` read stale data because the read address on `AR` passed the write address on `AW` in mid-flight!


##### 6. Tracing Transactions 3 & 4 (Address `0x2000`):

* **Cycle 2 ($t = 1.0\text{ ns}$)**: Transaction 3 (`STORE [0x2000] = 0x3333_4444`, `AWID = 2`) is dispatched on `AW` channel.
  * Crossbar Hazard Detector records active write address `0x2000` in Slot 1.
* **Cycle 3 ($t = 1.5\text{ ns}$)**: Transaction 4 (`LOAD R2, [0x2000]`, `ARID = 2`) is attempted on `AR` channel.
  * Crossbar Hazard Comparator detects `0x2000 == 0x2000` $\implies$ Sets `ARREADY = 0` for `0x2000`!
* **Cycle 4**: Transaction 3 completes write at SRAM (`0x3333_4444`).
* **Cycle 5**: Transaction 3 Write Response returns on `B` channel (`BID = 2`). Hazard slot 1 cleared! `ARREADY = 1` re-asserted for `0x2000`.
* **Cycle 6**: Transaction 4 (`ARADDR = 0x2000`) accepted.
* **Cycle 8 ($t = 4.0\text{ ns}$)**: Transaction 4 returns `RDATA = 0x3333_4444` on `R` channel to `R2`.


#### Step 4: Evaluate Same-ID vs. Different-ID Impact

What would happen if Transaction 3 (`STORE 0x2000`) was assigned `AWID = 1` (same ID as Transaction 1) instead of `AWID = 2`?

* Under **Same-ID Rule 1**:
  * `AWID = 1` (Transaction 1) and `AWID = 1` (Transaction 3) share the same ID.
  * The interconnect and SRAM target **MUST process Transaction 1 before Transaction 3** on the `AW` channel.
  * Because Transaction 3 had `AWID = 2` (different ID), the crossbar was permitted to pipeline Transaction 3's address on `AW` at Cycle 2 *while Transaction 1 was still in flight*!
  * Using different IDs (`AWID = 1` vs `AWID = 2`) allowed Transaction 3's write address to be pipelined 2 clock cycles earlier, accelerating overall interconnect throughput!


## Key Output Primitives

This lesson formally delivers the following conceptual primitives to your digital logic engineering toolbox:

* **AXI Transaction Ordering Rule**: The set of protocol invariants governing memory transaction sequence, where transactions with identical ID tags on the same channel are strictly preserved in program order, transactions with different ID tags can be reordered freely, and read/write channels operate independently even when sharing identical ID tags.
* **Interconnect ID Hazard Mitigation**: The hardware address tracking and overlap comparison mechanism inside an AXI crossbar matrix that detects Read-After-Write (RAW), Write-After-Read (WAR), and Write-After-Write (WAW) collisions between independent channels, stalling address handshakes (`ARREADY = 0` / `AWREADY = 0`) until prior dependent transactions commit to prevent data corruption.
