---
title: "AXI4 Channel Handshake Mechanics and Asymmetric Latency Decoupling"
---

# AXI4 Channel Handshake Mechanics and Asymmetric Latency Decoupling

## The Channel Coupling Bottleneck and the Read-Write Latency Mismatch

In high-performance System-on-Chip (SoC) microarchitecture, processing units—such as central processing unit (CPU) cores, graphics processing units (GPUs), and direct memory access (DMA) engines—frequently need to read from and write to memory at the exact same time. A CPU might be fetching new instructions from a high-speed Level 2 (L2) cache while simultaneously saving a register value to main system Dynamic Random-Access Memory (DRAM). At the exact same nanosecond, a GPU might be reading texture maps while writing rendered pixels to a display buffer.

In early on-chip bus designs, such as traditional unified parallel buses, all memory operations shared a single, tightly coupled set of wires. A single transaction bundle contained the target address, the data payload, and the direction control flags ($READ/WRITE\_n$) all tied together in a single, rigid sequence.

To understand why coupling read and write operations into a unified bus structure creates a catastrophic performance bottleneck, we must look at the physical reality of memory hardware: **Asymmetric Memory Latencies**.

In digital silicon, reading data from a memory target and writing data to a memory target have completely different physical latencies, buffer requirements, and timing characteristics:

1. **Read Operations (Loads) are Latency-Sensitive and Multi-Step**:
   When a processor requests a read operation, it cannot proceed until the data actually arrives. The processor sends a read address, and then it must wait for the memory controller to decode the address, activate a row of storage cells, amplify the tiny electrical charges, and drive the requested bytes back across the wires. Read operations suffer from **high, unpredictable response latencies**.
2. **Write Operations (Stores) are Throughput-Sensitive and Fire-and-Forget**:
   When a processor requests a write operation, it already possesses both the target address and the data payload inside its internal registers. It can dump the address and data into a local write buffer in a single clock cycle and continue executing instructions. However, the memory target needs to verify that the write was completed safely, especially if the write passes through intermediate cache buffers or bridges. Write operations require **completion responses**, but the data payload itself is available immediately at the start of the transaction.

```text
UNIFIED BUS CHANNEL COUPLING (MUTUAL INTERFERENCE)

 Unified Bus: [ Read Address ] ──► [ Waiting for DRAM Read Data... ]
                                   ▲
                                   │ WRITE OPERATION BLOCKED!
 CPU wants to send Write Data ─────┘ (Must wait for Read Data to finish!)
```

When a bus couples read and write operations onto the same shared transaction wires:
* **Write Operations Get Blocked Behind Slow Reads**: If a CPU issues a read request to a slow off-chip DRAM memory module, the shared bus wires are locked while waiting for the read data to return. A fast, local write operation targeted at an adjacent on-chip Static RAM (SRAM) block is forced to sit idle, stalled behind the pending read!
* **Read Operations Get Blocked Behind Long Write Bursts**: If a DMA engine is streaming a large block of write data across the bus, a critical, time-sensitive CPU instruction read request cannot get its address onto the bus until the entire write data stream finishes.
* **Control Wires Sit Idle During Data Transfers**: While a 64-byte data payload is streaming across the data wires over multiple clock cycles, the address control wires sit completely unused and idle. Yet, because the channel is coupled, no other IP core is allowed to send a new address for the next transaction!

This tight coupling of addresses, read data, write data, and write responses into a single bus transaction creates a severe structural bottleneck. The bus forces independent tasks to wait for each other, introducing artificial pipeline stalls and wasting up to $70\%$ of the physical wire bandwidth.

To break this coupling bottleneck, modern SoC interconnects—most notably the Advanced eXtensible Interface 4 (**AXI4**) specification developed by ARM—completely abandon unified bus structures. 

Instead, AXI4 splits on-chip communication into **Five Physically Independent, Un-Coupled Channels** and governs every single channel using a standardized, bidirectional **Valid/Ready Handshake Protocol**.

By separating read addresses, read data, write addresses, write data, and write responses into independent, parallel pathways, AXI4 allows reads and writes to issue, progress, and complete simultaneously without ever blocking each other.


### Design 1: The Single Mixed Window (Unified Coupled Bus)

In a small, poorly designed diner, there is only **one single sliding window** between the dining room and the kitchen.

If a waiter wants to place an order or pick up food, everything must happen through this single window:
1. Waiter 0 stands at the window, hands a slip of paper for a complex Steak Order to the chef, and stays standing at the window.
2. The chef begins cooking the steak (which takes 20 minutes).
3. **The Bottleneck**: Because there is only one window, Waiter 0 remains standing at the window waiting for the steak. Meanwhile, Waiter 1 arrives holding a quick Dessert Order and a plate of cold Salad ready to be handed to the kitchen.
4. Waiter 1 cannot reach the window! Waiter 1 is blocked behind Waiter 0 for 20 minutes, even though the chef could have taken the salad in 2 seconds!

```text
SINGLE WINDOW BLOCKING SCENARIO

 Waiter 0: Waiting for 20-min Steak ──► Stands at Window!
 Waiter 1: Holding Quick Salad     ──► BLOCKED BEHIND WAITER 0!
                                       (Salad gets warm; Kitchen sits idle!)
```

Look at how terrible this single-window design is:
* Fast tasks (delivering a salad) are blocked behind slow tasks (cooking a steak).
* The chef has open counter space inside the kitchen, but cannot receive new food items because the single window is blocked by a waiting person.


### The Handshake Protocol: The "Paper Ready" and "Hand Open" Signals

Now, how do a waiter and a chef exchange a plate at any of these five windows without dropping the food on the floor?

They use a two-person **Handshake Rule** at every window:

```text
THE TWO-PERSON HANDSHAKE AT A SERVICE WINDOW

 Waiter (Source)                          Chef (Destination)
 Holds Plate & Asserts "VALID"            Extends Hands & Asserts "READY"
 ("I have a valid plate for you!")        ("My hands are open and ready!")
                 │                                │
                 └────────────────┬───────────────┘
                                  ▼
           EXACT SECOND BOTH "VALID" AND "READY" ARE YES:
           The plate is transferred cleanly! (Handshake Complete!)
```

1. **The Item Present Signal (`VALID`)**: The person holding the plate (the Sender) places the plate on the counter and holds up a sign saying **`VALID = 1`** ("I am holding a valid item for you!").
2. **The Ready to Accept Signal (`READY`)**: The person receiving the plate (the Receiver) extends their hands and holds up a sign saying **`READY = 1`** ("My hands are open and I am ready to take it!").
3. **The Transfer Moment (The Clock Edge)**: **ONLY when BOTH signs read `VALID = 1` AND `READY = 1` at the exact same second does the plate pass across the counter!**

If the waiter holds up `VALID = 1` but the chef's hands are full (`READY = 0`), the waiter **must hold the plate steady on the counter and wait**. The waiter is forbidden from pulling the plate back or changing the food on the plate until the chef raises `READY = 1` and takes it!

This five-window restaurant is the exact physical analogue of **The AXI4 Five-Channel Architecture**:
* Waiters are **Master IP Cores (CPU, GPU, DMA)**.
* Chefs/Kitchen are **Slave Targets (Memory Controllers, SRAM)**.
* The 5 specialized windows are the **Five Independent AXI4 Channels (`AR`, `R`, `AW`, `W`, `B`)**.
* Plates of food and order tickets are **Address and Data Payloads**.
* The `VALID` sign is the **Source Signal `VALID`**.
* The `READY` sign is the **Destination Signal `READY`**.
* The transfer moment is the **Rising Clock Edge (`posedge ACLK`) where `VALID && READY == 1`**.


### Detailed Breakdown of the Five AXI4 Channels

Let us analyze the direction, payload signals, and architectural purpose of each of the five AXI4 channels:

#### 1. Read Address Channel (`AR`) — Direction: Master $\to$ Slave
* **Purpose**: Transmits the read memory target address and control parameters from the master core to the slave target.
* **Key Payload Signals**:
  * `ARADDR[31:0]` (or `[63:0]`): Physical memory byte address for the read transaction.
  * `ARLEN[7:0]`: Exact number of transfers in the read burst (Burst Length = `ARLEN + 1`).
  * `ARSIZE[2:0]`: Bytes per transfer (e.g., 1, 2, 4, 8, 16, 32, 64, or 128 bytes).
  * `ARBURST[1:0]`: Burst type (`FIXED`, `INCR`, or `WRAP`).
  * `ARID[3:0]`: Transaction Identification Tag for out-of-order response tracking.
* **Handshake Signals**: `ARVALID` (driven by Master), `ARREADY` (driven by Slave).

#### 2. Read Data Channel (`R`) — Direction: Slave $\to$ Master
* **Purpose**: Transmits the requested read data payload and completion status flags from the slave target back to the master core.
* **Key Payload Signals**:
  * `RDATA[31:0]` (or `[63:0]`, `[128:0]`, `[512:0]`): Read data payload bus.
  * `RRESP[1:0]`: Read status flag (`OKAY`, `EXOKAY`, `SLVERR` for slave error, `DECERR` for decode error).
  * `RLAST`: Active-high flag asserted by the slave during the final data word transfer of a multi-word burst.
  * `RID[3:0]`: Matches the `ARID` tag of the original read address request.
* **Handshake Signals**: `RVALID` (driven by Slave), `RREADY` (driven by Master).

#### 3. Write Address Channel (`AW`) — Direction: Master $\to$ Slave
* **Purpose**: Transmits the write memory target address and burst control parameters from the master core to the slave target.
* **Key Payload Signals**:
  * `AWADDR[31:0]` (or `[63:0]`): Physical memory byte address for the write transaction.
  * `AWLEN[7:0]`, `AWSIZE[2:0]`, `AWBURST[1:0]`: Burst parameters for the write transaction.
  * `AWID[3:0]`: Transaction Identification Tag for write tracking.
* **Handshake Signals**: `AWVALID` (driven by Master), `AWREADY` (driven by Slave).

#### 4. Write Data Channel (`W`) — Direction: Master $\to$ Slave
* **Purpose**: Transmits the actual write data payload bytes from the master core to the slave target.
* **Key Payload Signals**:
  * `WDATA[31:0]` (or `[63:0]`, `[512:0]`): Write data payload bus.
  * `WSTRB[3:0]` (or `[7:0]`, `[63:0]`): Byte-strobe mask vector. Each bit corresponds to one byte in `WDATA`, specifying whether that individual byte should be written ($1$) or ignored ($0$).
  * `WLAST`: Active-high flag asserted by the master during the final data word transfer of a write burst.
* **Handshake Signals**: `WVALID` (driven by Master), `WREADY` (driven by Slave).

#### 5. Write Response Channel (`B`) — Direction: Slave $\to$ Master
* **Purpose**: Transmits the final write completion acknowledgment and status flags from the slave target back to the master core.
* **Key Payload Signals**:
  * `BRESP[1:0]`: Write status flag (`OKAY`, `EXOKAY`, `SLVERR`, `DECERR`).
  * `BID[3:0]`: Matches the `AWID` tag of the original write address request.
* **Handshake Signals**: `BVALID` (driven by Slave), `BREADY` (driven by Master).


## Primitive 2: The Valid/Ready Handshake Protocol

Now that we understand the five independent AXI4 channels, let us examine the fundamental protocol that governs data transfer across every single channel: **The Valid/Ready Handshake Protocol**.

Every one of the five AXI4 channels uses the exact same two-wire handshake mechanism to transfer payload data from a **Source** (transmitter) to a **Destination** (receiver):

```text
THE TWO-WIRE VALID/READY HANDSHAKE INTERFACE

 Source (Transmitter)                                Destination (Receiver)
 ┌──────────────────┐                                ┌──────────────────┐
 │ Payload Data     ├═══════ Payload Bus ═══════════►│ Payload Buffer   │
 │ (ADDR/DATA/RESP) │                                │                  │
 │                  │                                │                  │
 │ Control State    ├─────── VALID Signal ──────────►│ Handshake Logic  │
 │                  │◄────── READY Signal ───────────┤                  │
 └──────────────────┘                                └──────────────────┘
```

* **`VALID` Signal (Driven by Source)**: When High ($1$), indicates that the Source has placed valid payload data onto the channel wires.
* **`READY` Signal (Driven by Destination)**: When High ($1$), indicates that the Destination is ready to accept payload data on the current clock cycle.


### The Three Valid/Ready Timing Scenarios

Because `VALID` and `READY` are generated by independent hardware state machines in the Source and Destination IP cores, the two signals can be asserted in three distinct temporal orders:

```text
THREE VALID/READY TIMING RELATIONSHIPS

 Scenario A: VALID Asserted BEFORE READY (Destination Busy)
 Clock (ACLK) : 010101010101010101010101
 VALID        : 000111111111111111000000 (Asserted early by Source)
 READY        : 000000000001111111000000 (Asserted later by Destination)
                           ▲
                           │ Handshake completes HERE! (Cycle 3)

 Scenario B: READY Asserted BEFORE VALID (Destination Waiting)
 Clock (ACLK) : 010101010101010101010101
 VALID        : 000000000001111111000000 (Asserted later by Source)
 READY        : 000111111111111111000000 (Asserted early by Destination)
                           ▲
                           │ Handshake completes HERE! (Cycle 3)

 Scenario C: VALID and READY Asserted SIMULTANEOUSLY (1-Cycle Fast Path)
 Clock (ACLK) : 010101010101010101010101
 VALID        : 000111111111111111000000
 READY        : 000111111111111111000000
                      ▲
                      │ Handshake completes IMMEDIATELY! (Cycle 1)
```

Let us examine each timing scenario in detail:

#### Scenario A: `VALID` Asserted Before `READY` (Destination Busy)
* The Source has data ready at Cycle 1 and asserts `VALID = 1`.
* The Destination is busy processing prior work, so its buffer is full (`READY = 0`).
* **Protocol Requirement**: The Source **MUST hold `VALID = 1` High and keep the payload data completely unchanged** on the channel wires until the Destination eventually asserts `READY = 1`.
* At Cycle 3, the Destination frees a buffer slot and asserts `READY = 1`. Both signals are High. The payload transfers on the rising edge of Cycle 3!

#### Scenario B: `READY` Asserted Before `VALID` (Destination Waiting)
* The Destination has empty buffer space and asserts `READY = 1` at Cycle 1, waiting for data.
* The Source is still calculating the address or fetching data payload (`VALID = 0`).
* At Cycle 3, the Source finishes calculating data and asserts `VALID = 1`.
* Both signals are High. The payload transfers instantly on the rising edge of Cycle 3!

#### Scenario C: `VALID` and `READY` Asserted Simultaneously (1-Cycle Fast Path)
* Both Source and Destination are idle and prepared.
* At Cycle 1, the Source asserts `VALID = 1` and the Destination asserts `READY = 1` on the exact same clock cycle.
* On the rising edge of Cycle 1, both signals are High. The payload transfers in **$1\text{ single clock cycle}$**!


## Real-World Silicon Engineering: Deadlock Prevention and Backpressure

Understanding AXI4 handshake mechanics is essential for hardware engineers because improper combinational wiring between `VALID` and `READY` signals can cause catastrophic system-level failures in physical silicon.


### 2. Backpressure Propagation in Pipelined Interconnects

In a complex SoC with multiple crossbar switches between a CPU and a DRAM controller, what happens when the DRAM controller becomes temporarily busy (e.g., executing a DRAM Auto-Refresh cycle)?

The DRAM controller de-asserts its ready signal (`ARREADY = 0`).

```text
BACKPRESSURE PROPAGATION ACROSS PIPELINED BRIDGES

 DRAM Controller (ARREADY = 0) ──► De-asserts READY to Interconnect Bridge 2
                                            │
 Interconnect Bridge 2         ──► De-asserts READY to Interconnect Bridge 1
                                            │
 Interconnect Bridge 1         ──► De-asserts READY to CPU Core (ARREADY = 0)
                                            │
 CPU Execution Pipeline        ──► STALLS ON LOAD INSTRUCTION!
 (Backpressure propagates backward through pipeline registers in 3 cycles!)
```

This backward flow of stall signals is called **Backpressure Propagation**:
1. The DRAM controller sets `ARREADY = 0`.
2. Interconnect Bridge 2 receives `ARREADY = 0`. Its internal 2-slot FIFO buffer fills up.
3. Once full, Bridge 2 sets its own input `ARREADY = 0` back to Bridge 1.
4. Bridge 1's buffer fills up and sets its input `ARREADY = 0` back to the CPU.
5. The CPU pipeline detects `ARREADY = 0` and gracefully freezes its load execution stage.

Because every AXI4 channel enforces the Stability Rule (Rule 1), **zero data words or addresses are lost during backpressure propagation**! 

The data sits safely in intermediate pipeline registers until the DRAM controller finishes its refresh, re-asserts `ARREADY = 1`, and drains the pipeline!


### Scenario and Parameters

You are a senior SoC interconnect architect auditing the AXI4 bus interface between a $2.0\text{ GHz}$ CPU Core Master ($T_{\text{clk}} = 0.50\text{ ns} = 500\text{ ps}$) and a multi-channel Memory Controller Slave Target.

```text
2.0 GHZ SOC AXI4 INTERCONNECT SUBSYSTEM

 CPU Core Master (2.0 GHz) ──► [ AXI4 Interconnect ] ──► Memory Controller Slave
 Clock T = 500 ps              5 Independent Channels    SRAM / DRAM Target
```

#### System Operating Parameters:
* CPU Clock Frequency: $f_{\text{clk}} = 2.0\text{ GHz}$ ($T_{\text{clk}} = 500\text{ ps}$).
* Memory Target Specifications:
  * Fast On-Chip SRAM Target: Read Latency = $2\text{ clock cycles}$ ($1.0\text{ ns}$); Write Latency = $1\text{ clock cycle}$ ($0.5\text{ ns}$).
  * Slow Off-Chip DRAM Target: Read Latency = $20\text{ clock cycles}$ ($10.0\text{ ns}$); Write Response Latency = $10\text{ clock cycles}$ ($5.0\text{ ns}$).

#### The Workload Execution Stream:
At physical time $t = 0.0\text{ ns}$ (Clock Cycle 0), the CPU Core Master dispatches three memory instructions in rapid succession on consecutive clock cycles ($t = 0, 1, 2$):

1. **Instruction 1 (Cycle 0)**: `READ_SLOW` — Read 64 bytes from Slow DRAM Target at address `0x8000_0000` (`ARID = 1`).
2. **Instruction 2 (Cycle 1)**: `WRITE_FAST` — Write 4 bytes to Fast On-Chip SRAM Target at address `0x0000_1000` (`AWID = 2`).
3. **Instruction 3 (Cycle 2)**: `READ_FAST` — Read 4 bytes from Fast On-Chip SRAM Target at address `0x0000_1004` (`ARID = 3`).

#### Your Objective

1. Analyze **System A (Unified Coupled Bus Architecture — Legacy Model)**:
   * Trace the execution sequence assuming all read/write addresses and data share a single coupled bus channel.
   * Calculate the completion cycle and total execution delay (in nanoseconds) for Instruction 2 (`WRITE_FAST`) and Instruction 3 (`READ_FAST`).
   * Show how slow DRAM read latency blocks independent fast SRAM operations.
2. Analyze **System B (AXI4 Five-Channel Decoupled Architecture)**:
   * Trace the channel-by-channel handshake events (`AR`, `R`, `AW`, `W`, `B`) across all five independent channels.
   * Calculate the exact completion cycle and total execution delay (in nanoseconds) for all three instructions under AXI4 decoupling.
3. Calculate the percentage reduction in execution delay and the overall **Performance Speedup Factor** of AXI4 channel decoupling over the legacy unified bus for this instruction stream.
4. Verify mathematical, structural, and timing correctness.


#### Step 2: Analyze System B (AXI4 Five-Channel Decoupled Architecture)

Under AXI4, the five channels (`AR`, `R`, `AW`, `W`, `B`) operate **100% independently in parallel**.

##### Trace Channel-by-Channel Handshake Events (System B):

1. **Cycle 0 ($t = 0.0\text{ ns}$)**:
   * **`AR` Channel**: CPU dispatches Inst 1 Read Address (`ARADDR = 0x8000_0000`, `ARID = 1`). DRAM asserts `ARREADY = 1`. **`AR` Handshake Complete in Cycle 0!**
   * Slow DRAM begins fetching `0x8000_0000` in the background (will return data on `R` channel at Cycle 20).

2. **Cycle 1 ($t = 0.5\text{ ns}$)**:
   * **`AW` Channel**: CPU dispatches Inst 2 Write Address (`AWADDR = 0x0000_1000`, `AWID = 2`). Fast SRAM asserts `AWREADY = 1`. **`AW` Handshake Complete in Cycle 1!**
   * **`W` Channel**: CPU dispatches Inst 2 Write Data (`WDATA = payload`, `WSTRB = 4'b1111`). Fast SRAM asserts `WREADY = 1`. **`W` Handshake Complete in Cycle 1!**
   * Fast SRAM writes payload locally in Cycle 1.
   * **`B` Channel**: Fast SRAM returns Write Response (`BRESP = OKAY`, `BID = 2`, `BVALID = 1`) at Cycle 2.
   * **Instruction 2 (`WRITE_FAST`) Completes at Cycle 2 ($t = 1.0\text{ ns}$)**!

3. **Cycle 2 ($t = 1.0\text{ ns}$)**:
   * **`AR` Channel**: CPU dispatches Inst 3 Read Address (`ARADDR = 0x0000_1004`, `ARID = 3`). Fast SRAM asserts `ARREADY = 1`. **`AR` Handshake Complete in Cycle 2!**
   * Fast SRAM reads payload locally in 2 cycles.
   * **`R` Channel**: Fast SRAM returns Read Data (`RDATA = payload`, `RID = 3`, `RLAST = 1`, `RVALID = 1`) at Cycle 4.
   * **Instruction 3 (`READ_FAST`) Completes at Cycle 4 ($t = 2.0\text{ ns}$)**!

4. **Cycle 20 ($t = 10.0\text{ ns}$)**:
   * **`R` Channel**: Slow DRAM finishes fetching Inst 1 data and returns Read Data (`RDATA = payload`, `RID = 1`, `RLAST = 1`, `RVALID = 1`).
   * **Instruction 1 (`READ_SLOW`) Completes at Cycle 20 ($t = 10.0\text{ ns}$)**!

```text
SYSTEM B AXI4 DECOUPLED CHANNEL CHRONOLOGY

 Cycle 0 : AR Channel ──► Inst 1 Read Addr Dispatched (DRAM fetch starts background)
 Cycle 1 : AW/W Channel ─► Inst 2 Write Addr & Data Dispatched to Fast SRAM!
           Inst 2 Completes at Cycle 2 (1.0 ns)! (SAVED 10 NANOSECONDS!)
 Cycle 2 : AR Channel ──► Inst 3 Read Addr Dispatched to Fast SRAM!
           Inst 3 Completes at Cycle 4 (2.0 ns)! (SAVED 10 NANOSECONDS!)
 Cycle 20: R Channel  ──► Inst 1 Read Data Returns from DRAM!
           Inst 1 Completes at Cycle 20 (10.0 ns)!
```


### Sanity Check and Verification

Let us verify our mathematical and protocol state results against AXI4 handshake rules:

1. **`VALID`/`READY` Handshake Rule Check**:
   * On Cycle 1, `AWVALID = 1` and `AWREADY = 1` occurred on the exact same clock edge.
   * On Cycle 1, `WVALID = 1` and `WREADY = 1` occurred on the exact same clock edge.
   * The `AW` and `W` transfers completed cleanly in 1 clock cycle without violating Rule 1 or Rule 2!
2. **Channel Independence Check**:
   * At Cycle 1, `AWADDR` for Inst 2 was transmitted on the `AW` channel while Inst 1's read fetch was in progress in DRAM.
   * Zero signal contention occurred because `AW` and `R` use physically separate copper traces on the chip.
3. **Write Response Separation**:
   * Fast SRAM completed its write payload write in Cycle 1 and returned `BRESP = OKAY` on the `B` channel at Cycle 2, allowing the CPU to retire Inst 2 cleanly.

All channel signals, `VALID`/`READY` handshake transitions, split-transaction latencies, and speedup ratios evaluate with 100% mathematical, physical, and logical precision.

